T0590 9180:752 SEGGER J-Link V6.46 Log File (0016ms, 19085ms total)
T0590 9180:752 DLL Compiled: May 23 2019 17:49:56 (0016ms, 19085ms total)
T0590 9180:752 Logging started @ 2019-12-01 21:25 (0016ms, 19085ms total)
T0590 9180:768 JLINK_SetWarnOutHandler(...) (0000ms, 19085ms total)
T0590 9180:768 JLINK_OpenEx(...)
Firmware: J-Link ARM-OB STM32 compiled Aug 22 2012 19:52:04
Hardware: V7.00
S/N: 20090928
Feature(s): RDI,FlashDL,FlashBP,JFlash,GDBFull
TELNET listener socket opened on port 19021WEBSRV 
Starting webserver (0036ms, 19121ms total)
T0590 9180:768 WEBSRV Webserver running on local port 19080 (0036ms, 19121ms total)
T0590 9180:768   returns O.K. (0036ms, 19121ms total)
T0590 9180:805 JLINK_GetEmuCaps()  returns 0x88EA5833 (0000ms, 19121ms total)
T0590 9180:806 JLINK_TIF_GetAvailable(...) (0000ms, 19121ms total)
T0590 9180:806 JLINK_SetErrorOutHandler(...) (0000ms, 19121ms total)
T0590 9180:806 JLINK_ExecCommand("ProjectFile = "D:\workplace\MiniCar\JLinkSettings.ini"", ...).   returns 0x00 (0007ms, 19128ms total)
T0590 9180:813 JLINK_ExecCommand("Device = STM32F103RC", ...). Device "STM32F103RC" selected.  returns 0x00 (0003ms, 19131ms total)
T0590 9180:816 JLINK_ExecCommand("DisableConnectionTimeout", ...).   returns 0x01 (0000ms, 19131ms total)
T0590 9180:816 JLINK_GetHardwareVersion()  returns 0x11170 (0001ms, 19132ms total)
T0590 9180:817 JLINK_GetDLLVersion()  returns 64600 (0000ms, 19132ms total)
T0590 9180:817 JLINK_GetFirmwareString(...) (0000ms, 19132ms total)
T0590 9180:817 JLINK_GetDLLVersion()  returns 64600 (0000ms, 19132ms total)
T0590 9180:817 JLINK_GetCompileDateTime() (0000ms, 19132ms total)
T0590 9180:817 JLINK_GetFirmwareString(...) (0000ms, 19132ms total)
T0590 9180:817 JLINK_GetHardwareVersion()  returns 0x11170 (0000ms, 19132ms total)
T0590 9180:817 JLINK_TIF_Select(JLINKARM_TIF_SWD)  returns 0x00 (0001ms, 19133ms total)
T0590 9180:818 JLINK_SetSpeed(5000) (0000ms, 19133ms total)
T0590 9180:818 JLINK_GetId() >0x10B TIF>Found SW-DP with ID 0x1BA01477 >0x0D TIF> >0x28 TIF> >0x0D TIF> >0x28 TIF> >0x0D TIF> >0x28 TIF> >0x0D TIF> >0x28 TIF> >0x0D TIF> >0x21 TIF> >0x0D TIF> >0x28 TIF> >0x0D TIF> >0x28 TIF> >0x0D TIF> >0x28 TIF> >0x0D TIF> >0x21 TIF> >0x0D TIF> >0x21 TIF> >0x0D TIF> >0x28 TIF> >0x0D TIF> >0x21 TIF> >0x0D TIF> >0x21 TIF> >0x0D TIF> >0x28 TIF> >0x0D TIF> >0x21 TIF> >0x0D TIF> >0x21 TIF> >0x0D TIF> >0x28 TIF> >0x0D TIF> >0x21 TIF> >0x0D TIF> >0x21 TIF> >0x0D TIF>
 >0x28 TIF> >0x0D TIF> >0x21 TIF> >0x0D TIF> >0x21 TIF> >0x0D TIF> >0x28 TIF> >0x0D TIF> >0x21 TIF> >0x0D TIF> >0x21 TIF> >0x0D TIF> >0x28 TIF> >0x0D TIF> >0x21 TIF> >0x0D TIF> >0x21 TIF> >0x10B TIF>Found SW-DP with ID 0x1BA01477 >0x0D TIF> >0x28 TIF> >0x0D TIF> >0x28 TIF> >0x0D TIF> >0x28 TIF> >0x0D TIF> >0x28 TIF> >0x0D TIF> >0x21 TIF> >0x0D TIF> >0x28 TIF>Scanning AP map to find all available APs >0x0D TIF> >0x28 TIF> >0x0D TIF> >0x21 TIF> >0x0D TIF> >0x21 TIF> >0x0D TIF> >0x28 TIF> >0x0D TIF>
 >0x21 TIF> >0x0D TIF> >0x21 TIF>AP[1]: Stopped AP scan as end of AP map has been reachedAP[0]: AHB-AP (IDR: 0x14770011)Iterating through AP map to find AHB-AP to use >0x42 TIF> >0x28 TIF> >0x0D TIF> >0x28 TIF> >0x0D TIF> >0x21 TIF> >0x0D TIF> >0x21 TIF> >0x42 TIF> >0x28 TIF> >0x0D TIF> >0x28 TIF> >0x0D TIF> >0x28 TIF> >0x0D TIF> >0x21 TIF> >0x0D TIF> >0x21 TIF>AP[0]: Core foundAP[0]: AHB-AP ROM base: 0xE00FF000 >0x0D TIF> >0x28 TIF> >0x0D TIF> >0x28 TIF> >0x0D TIF> >0x28 TIF> >0x0D TIF> >0x21 TIF>
 >0x0D TIF> >0x21 TIF>CPUID register: 0x411FC231. Implementer code: 0x41 (ARM)Found Cortex-M3 r1p1, Little endian. -- Max. mem block: 0x00002C18 -- CPU_ReadMem(4 bytes @ 0xE000EDF0) -- CPU_WriteMem(4 bytes @ 0xE000EDF0) -- CPU_ReadMem(4 bytes @ 0xE0002000)FPUnit: 6 code (BP) slots and 2 literal slots -- CPU_ReadMem(4 bytes @ 0xE000EDFC) -- CPU_WriteMem(4 bytes @ 0xE000EDFC) -- CPU_ReadMem(4 bytes @ 0xE0001000) -- CPU_WriteMem(4 bytes @ 0xE0001000) -- CPU_ReadMem(4 bytes @ 0xE000ED88)
 -- CPU_WriteMem(4 bytes @ 0xE000ED88) -- CPU_ReadMem(4 bytes @ 0xE000ED88) -- CPU_WriteMem(4 bytes @ 0xE000ED88)CoreSight components:ROMTbl[0] @ E00FF000 -- CPU_ReadMem(16 bytes @ 0xE00FF000) -- CPU_ReadMem(16 bytes @ 0xE000EFF0) -- CPU_ReadMem(16 bytes @ 0xE000EFE0)ROMTbl[0][0]: E000E000, CID: B105E00D, PID: 001BB000 SCS -- CPU_ReadMem(16 bytes @ 0xE0001FF0) -- CPU_ReadMem(16 bytes @ 0xE0001FE0)ROMTbl[0][1]: E0001000, CID: B105E00D, PID: 001BB002 DWT -- CPU_ReadMem(16 bytes @ 0xE0002FF0)
 -- CPU_ReadMem(16 bytes @ 0xE0002FE0)ROMTbl[0][2]: E0002000, CID: B105E00D, PID: 000BB003 FPB -- CPU_ReadMem(16 bytes @ 0xE0000FF0) -- CPU_ReadMem(16 bytes @ 0xE0000FE0)ROMTbl[0][3]: E0000000, CID: B105E00D, PID: 001BB001 ITM -- CPU_ReadMem(16 bytes @ 0xE00FF010) -- CPU_ReadMem(16 bytes @ 0xE0040FF0) -- CPU_ReadMem(16 bytes @ 0xE0040FE0)ROMTbl[0][4]: E0040000, CID: B105900D, PID: 001BB923 TPIU-Lite -- CPU_ReadMem(16 bytes @ 0xE0041FF0) -- CPU_ReadMem(16 bytes @ 0xE0041FE0)
ROMTbl[0][5]: E0041000, CID: B105900D, PID: 101BB924 ETM-M3 >0x0D TIF> >0x21 TIF>  returns 0x1BA01477 (0160ms, 19293ms total)
T0590 9180:978 JLINK_GetDLLVersion()  returns 64600 (0000ms, 19293ms total)
T0590 9180:978 JLINK_CORE_GetFound()  returns 0x30000FF (0001ms, 19294ms total)
T0590 9180:979 JLINK_GetDebugInfo(0x100 = JLINKARM_ROM_TABLE_ADDR_INDEX) -- Value=0xE00FF000  returns 0x00 (0000ms, 19294ms total)
T0590 9180:979 JLINK_GetDebugInfo(0x100 = JLINKARM_ROM_TABLE_ADDR_INDEX) -- Value=0xE00FF000  returns 0x00 (0000ms, 19294ms total)
T0590 9180:979 JLINK_GetDebugInfo(0x101 = JLINKARM_DEBUG_INFO_ETM_ADDR_INDEX) -- Value=0xE0041000  returns 0x00 (0000ms, 19294ms total)
T0590 9180:979 JLINK_ReadMemEx(0xE0041FD0, 0x0020 Bytes, ..., Flags = 0x02000004) -- CPU_ReadMem(32 bytes @ 0xE0041FD0) - Data: 04 00 00 00 00 00 00 00 00 00 00 00 00 00 00 00 ...  returns 0x20 (0001ms, 19295ms total)
T0590 9180:980 JLINK_GetDebugInfo(0x102 = JLINKARM_DEBUG_INFO_MTB_ADDR_INDEX) -- Value=0x00000000  returns 0x00 (0000ms, 19295ms total)
T0590 9180:980 JLINK_GetDebugInfo(0x103 = JLINKARM_DEBUG_INFO_TPIU_ADDR_INDEX) -- Value=0xE0040000  returns 0x00 (0000ms, 19295ms total)
T0590 9180:980 JLINK_GetDebugInfo(0x104 = JLINKARM_DEBUG_INFO_ITM_ADDR_INDEX) -- Value=0xE0000000  returns 0x00 (0000ms, 19295ms total)
T0590 9180:980 JLINK_GetDebugInfo(0x105 = JLINKARM_DEBUG_INFO_DWT_ADDR_INDEX) -- Value=0xE0001000  returns 0x00 (0001ms, 19296ms total)
T0590 9180:981 JLINK_GetDebugInfo(0x106 = JLINKARM_DEBUG_INFO_FPB_ADDR_INDEX) -- Value=0xE0002000  returns 0x00 (0000ms, 19296ms total)
T0590 9180:981 JLINK_GetDebugInfo(0x107 = JLINKARM_DEBUG_INFO_NVIC_ADDR_INDEX) -- Value=0xE000E000  returns 0x00 (0000ms, 19296ms total)
T0590 9180:981 JLINK_GetDebugInfo(0x10C = JLINKARM_DEBUG_INFO_DBG_ADDR_INDEX) -- Value=0xE000EDF0  returns 0x00 (0000ms, 19296ms total)
T0590 9180:981 JLINK_GetDebugInfo(0x01 = Unknown) -- Value=0x00000000  returns 0x00 (0000ms, 19296ms total)
T0590 9180:981 JLINK_ReadMemU32(0xE000ED00, 0x0001 Items, ...) -- CPU_ReadMem(4 bytes @ 0xE000ED00) - Data: 31 C2 1F 41  returns 1 (0001ms, 19297ms total)
T0590 9180:982 JLINK_GetDebugInfo(0x10F = JLINKARM_DEBUG_INFO_HAS_CORTEX_M_SECURITY_EXT_INDEX) -- Value=0x00000000  returns 0x00 (0000ms, 19297ms total)
T0590 9180:982 JLINK_SetResetType(JLINKARM_CM3_RESET_TYPE_NORMAL)  returns JLINKARM_CM3_RESET_TYPE_NORMAL (0000ms, 19297ms total)
T0590 9180:982 JLINK_Reset() -- CPU is running -- CPU_WriteMem(4 bytes @ 0xE000EDF0) -- CPU is running -- CPU_WriteMem(4 bytes @ 0xE000EDFC)Reset: Halt core after reset via DEMCR.VC_CORERESET. >0x35 TIF>Reset: Reset device via AIRCR.SYSRESETREQ. -- CPU is running -- CPU_WriteMem(4 bytes @ 0xE000ED0C) >0x0D TIF> >0x28 TIF> -- CPU_ReadMem(4 bytes @ 0xE000EDF0) -- CPU_ReadMem(4 bytes @ 0xE000EDF0) -- CPU is running -- CPU_WriteMem(4 bytes @ 0xE000EDF0) -- CPU is running -- CPU_WriteMem(4 bytes @ 0xE000EDFC)
 -- CPU_ReadMem(4 bytes @ 0xE000EDF0) -- CPU_WriteMem(4 bytes @ 0xE0002000) -- CPU_ReadMem(4 bytes @ 0xE000EDFC) -- CPU_ReadMem(4 bytes @ 0xE0001000) (0074ms, 19371ms total)
T0590 9181:057 JLINK_ReadReg(R15 (PC))  returns 0x080001B0 (0000ms, 19371ms total)
T0590 9181:057 JLINK_ReadReg(XPSR)  returns 0x01000000 (0000ms, 19371ms total)
T0590 9181:057 JLINK_Halt()  returns 0x00 (0000ms, 19371ms total)
T0590 9181:057 JLINK_ReadMemU32(0xE000EDF0, 0x0001 Items, ...) -- CPU_ReadMem(4 bytes @ 0xE000EDF0) - Data: 03 00 03 00  returns 1 (0002ms, 19373ms total)
T0590 9181:059 JLINK_WriteU32(0xE000EDF0, 0xA05F0003) -- CPU_WriteMem(4 bytes @ 0xE000EDF0)  returns 0 (0001ms, 19374ms total)
T0590 9181:060 JLINK_WriteU32(0xE000EDFC, 0x01000000) -- CPU_WriteMem(4 bytes @ 0xE000EDFC)  returns 0 (0001ms, 19375ms total)
T0590 9181:061 JLINK_GetHWStatus(...)  returns 0x00 (0000ms, 19375ms total)
T0590 9181:062 JLINK_GetNumBPUnits(Type = 0xFFFFFF00)  returns 0x06 (0000ms, 19375ms total)
T0590 9181:062 JLINK_GetNumBPUnits(Type = 0xF0)  returns 0x2000 (0000ms, 19375ms total)
T0590 9181:062 JLINK_GetNumWPUnits()  returns 0x04 (0000ms, 19375ms total)
T0590 9181:062 JLINK_GetSpeed()  returns 0xFA0 (0000ms, 19375ms total)
T0590 9181:062 JLINK_ReadMemU32(0xE000E004, 0x0001 Items, ...) -- CPU_ReadMem(4 bytes @ 0xE000E004) - Data: 01 00 00 00  returns 1 (0001ms, 19376ms total)
T0590 9181:063 JLINK_ReadMemU32(0xE000E004, 0x0001 Items, ...) -- CPU_ReadMem(4 bytes @ 0xE000E004) - Data: 01 00 00 00  returns 1 (0001ms, 19377ms total)
T0590 9181:064 JLINK_WriteMemEx(0xE0001000, 0x001C Bytes, ..., Flags = 0x02000004) - Data: 01 00 00 00 00 00 00 00 00 00 00 00 00 00 00 00 ... -- CPU_WriteMem(28 bytes @ 0xE0001000)  returns 0x1C (0004ms, 19381ms total)
T0590 9181:068 JLINK_ReadReg(R15 (PC))  returns 0x080001B0 (0000ms, 19381ms total)
T0590 9181:068 JLINK_ReadReg(XPSR)  returns 0x01000000 (0000ms, 19381ms total)
T0590 9181:085 JLINK_ReadMemEx(0xE0001004, 0x0004 Bytes, ..., Flags = 0x02000000) - Data: 00 00 00 00  returns 0x04 (0000ms, 19381ms total)
T0590 9181:180 JLINK_SetResetType(JLINKARM_CM3_RESET_TYPE_NORMAL)  returns JLINKARM_CM3_RESET_TYPE_NORMAL (0000ms, 19381ms total)
T0590 9181:180 JLINK_Reset() -- CPU_WriteMem(4 bytes @ 0xE000EDF0) -- CPU_WriteMem(4 bytes @ 0xE000EDFC)Reset: Halt core after reset via DEMCR.VC_CORERESET. >0x35 TIF>Reset: Reset device via AIRCR.SYSRESETREQ. -- CPU_WriteMem(4 bytes @ 0xE000ED0C) >0x0D TIF> >0x28 TIF> -- CPU_ReadMem(4 bytes @ 0xE000EDF0) -- CPU_ReadMem(4 bytes @ 0xE000EDF0) -- CPU_WriteMem(4 bytes @ 0xE000EDF0) -- CPU_WriteMem(4 bytes @ 0xE000EDFC) -- CPU_ReadMem(4 bytes @ 0xE000EDF0) -- CPU_WriteMem(4 bytes @ 0xE0002000)
 -- CPU_ReadMem(4 bytes @ 0xE000EDFC) -- CPU_ReadMem(4 bytes @ 0xE0001000) (0073ms, 19454ms total)
T0590 9181:254 JLINK_ReadReg(R15 (PC))  returns 0x080001B0 (0000ms, 19454ms total)
T0590 9181:254 JLINK_ReadReg(XPSR)  returns 0x01000000 (0000ms, 19454ms total)
T0590 9181:256 JLINK_ReadMemEx(0x080001B0, 0x003C Bytes, ..., Flags = 0x02000000) -- CPU_ReadMem(128 bytes @ 0x08000180) -- Updating C cache (128 bytes @ 0x08000180) -- Read from C cache (60 bytes @ 0x080001B0) - Data: 09 48 80 47 09 48 00 47 FE E7 FE E7 FE E7 FE E7 ...  returns 0x3C (0003ms, 19457ms total)
T0590 9181:259 JLINK_ReadMemEx(0x080001B0, 0x0002 Bytes, ..., Flags = 0x02000000) -- Read from C cache (2 bytes @ 0x080001B0) - Data: 09 48  returns 0x02 (0000ms, 19457ms total)
T0590 9181:260 JLINK_ReadMemEx(0x080001B2, 0x0002 Bytes, ..., Flags = 0x02000000) -- Read from C cache (2 bytes @ 0x080001B2) - Data: 80 47  returns 0x02 (0000ms, 19457ms total)
T0590 9181:260 JLINK_ReadMemEx(0x080001B2, 0x0002 Bytes, ..., Flags = 0x02000000) -- Read from C cache (2 bytes @ 0x080001B2) - Data: 80 47  returns 0x02 (0001ms, 19458ms total)
T0590 9181:261 JLINK_ReadMemEx(0x080001B4, 0x003C Bytes, ..., Flags = 0x02000000) -- Read from C cache (60 bytes @ 0x080001B4) - Data: 09 48 00 47 FE E7 FE E7 FE E7 FE E7 FE E7 FE E7 ...  returns 0x3C (0000ms, 19458ms total)
T0590 9181:261 JLINK_ReadMemEx(0x080001B4, 0x0002 Bytes, ..., Flags = 0x02000000) -- Read from C cache (2 bytes @ 0x080001B4) - Data: 09 48  returns 0x02 (0000ms, 19458ms total)
T0590 9181:437 JLINK_ReadMemEx(0x40013400, 0x0010 Bytes, ..., Flags = 0x02000004) -- CPU_ReadMem(16 bytes @ 0x40013400) - Data: 00 00 00 00 00 00 00 00 00 00 00 00 00 00 00 00  returns 0x10 (0000ms, 19458ms total)
T0590 9181:437 JLINK_ReadMemEx(0x40013410, 0x0004 Bytes, ..., Flags = 0x02000004) -- CPU_ReadMem(4 bytes @ 0x40013410) - Data: 00 00 00 00  returns 0x04 (0001ms, 19459ms total)
T0590 9181:438 JLINK_ReadMemEx(0x40013418, 0x0014 Bytes, ..., Flags = 0x02000004) -- CPU_ReadMem(20 bytes @ 0x40013418) - Data: 00 00 00 00 00 00 00 00 00 00 00 00 00 00 00 00 ...  returns 0x14 (0001ms, 19460ms total)
T0590 9181:439 JLINK_ReadMemEx(0x4001342C, 0x0004 Bytes, ..., Flags = 0x02000004) -- CPU_ReadMem(4 bytes @ 0x4001342C) - Data: 00 00 00 00  returns 0x04 (0001ms, 19461ms total)
T0590 9181:440 JLINK_ReadMemEx(0x40013430, 0x0004 Bytes, ..., Flags = 0x02000004) -- CPU_ReadMem(4 bytes @ 0x40013430) - Data: 00 00 00 00  returns 0x04 (0001ms, 19462ms total)
T0590 9181:441 JLINK_ReadMemEx(0x40013434, 0x000C Bytes, ..., Flags = 0x02000004) -- CPU_ReadMem(12 bytes @ 0x40013434) - Data: 00 00 00 00 00 00 00 00 00 00 00 00  returns 0x0C (0000ms, 19462ms total)
T0590 9181:441 JLINK_ReadMemEx(0x40013440, 0x0004 Bytes, ..., Flags = 0x02000004) -- CPU_ReadMem(4 bytes @ 0x40013440) - Data: 00 00 00 00  returns 0x04 (0001ms, 19463ms total)
T0590 9181:442 JLINK_ReadMemEx(0x40013444, 0x0004 Bytes, ..., Flags = 0x02000004) -- CPU_ReadMem(4 bytes @ 0x40013444) - Data: 00 00 00 00  returns 0x04 (0000ms, 19463ms total)
T0590 9181:442 JLINK_ReadMemEx(0x40013448, 0x0004 Bytes, ..., Flags = 0x02000004) -- CPU_ReadMem(4 bytes @ 0x40013448) - Data: 00 00 00 00  returns 0x04 (0001ms, 19464ms total)
T0590 9181:443 JLINK_ReadMemEx(0x4001344C, 0x0004 Bytes, ..., Flags = 0x02000004) -- CPU_ReadMem(4 bytes @ 0x4001344C) - Data: 00 00 00 00  returns 0x04 (0001ms, 19465ms total)
T0590 9184:006 JLINK_ReadMemEx(0x080001B0, 0x003C Bytes, ..., Flags = 0x02000000) -- Read from C cache (60 bytes @ 0x080001B0) - Data: 09 48 80 47 09 48 00 47 FE E7 FE E7 FE E7 FE E7 ...  returns 0x3C (0000ms, 19465ms total)
T0590 9184:006 JLINK_ReadMemEx(0x080001B0, 0x0002 Bytes, ..., Flags = 0x02000000) -- Read from C cache (2 bytes @ 0x080001B0) - Data: 09 48  returns 0x02 (0000ms, 19465ms total)
T0590 9184:006 JLINK_ReadMemEx(0x080001B2, 0x0002 Bytes, ..., Flags = 0x02000000) -- Read from C cache (2 bytes @ 0x080001B2) - Data: 80 47  returns 0x02 (0000ms, 19465ms total)
T0590 9184:014 JLINK_ReadMemEx(0x080001B2, 0x0002 Bytes, ..., Flags = 0x02000000) -- Read from C cache (2 bytes @ 0x080001B2) - Data: 80 47  returns 0x02 (0000ms, 19465ms total)
T0590 9184:014 JLINK_ReadMemEx(0x080001B4, 0x003C Bytes, ..., Flags = 0x02000000) -- Read from C cache (60 bytes @ 0x080001B4) - Data: 09 48 00 47 FE E7 FE E7 FE E7 FE E7 FE E7 FE E7 ...  returns 0x3C (0000ms, 19465ms total)
T0590 9184:014 JLINK_ReadMemEx(0x080001B4, 0x0002 Bytes, ..., Flags = 0x02000000) -- Read from C cache (2 bytes @ 0x080001B4) - Data: 09 48  returns 0x02 (0000ms, 19465ms total)
T0590 9184:451 JLINK_ReadReg(R0)  returns 0x40010800 (0001ms, 19466ms total)
T0590 9184:452 JLINK_ReadReg(R1)  returns 0x00000004 (0000ms, 19466ms total)
T0590 9184:452 JLINK_ReadReg(R2)  returns 0x0000FFFF (0000ms, 19466ms total)
T0590 9184:452 JLINK_ReadReg(R3)  returns 0x10030004 (0000ms, 19466ms total)
T0590 9184:452 JLINK_ReadReg(R4)  returns 0x00000000 (0000ms, 19466ms total)
T0590 9184:452 JLINK_ReadMemU32(0xE0001004, 0x0001 Items, ...) - Data: 00 00 00 00  returns 1 (0000ms, 19466ms total)
T0590 9184:452 JLINK_ReadMemEx(0x40013400, 0x0010 Bytes, ..., Flags = 0x02000004) -- CPU_ReadMem(16 bytes @ 0x40013400) - Data: 00 00 00 00 00 00 00 00 00 00 00 00 00 00 00 00  returns 0x10 (0001ms, 19467ms total)
T0590 9184:453 JLINK_ReadMemEx(0x40013410, 0x0004 Bytes, ..., Flags = 0x02000004) -- CPU_ReadMem(4 bytes @ 0x40013410) - Data: 00 00 00 00  returns 0x04 (0000ms, 19467ms total)
T0590 9184:453 JLINK_ReadMemEx(0x40013418, 0x0014 Bytes, ..., Flags = 0x02000004) -- CPU_ReadMem(20 bytes @ 0x40013418) - Data: 00 00 00 00 00 00 00 00 00 00 00 00 00 00 00 00 ...  returns 0x14 (0001ms, 19468ms total)
T0590 9184:454 JLINK_ReadMemEx(0x4001342C, 0x0004 Bytes, ..., Flags = 0x02000004) -- CPU_ReadMem(4 bytes @ 0x4001342C) - Data: 00 00 00 00  returns 0x04 (0001ms, 19469ms total)
T0590 9184:455 JLINK_ReadMemEx(0x40013430, 0x0004 Bytes, ..., Flags = 0x02000004) -- CPU_ReadMem(4 bytes @ 0x40013430) - Data: 00 00 00 00  returns 0x04 (0001ms, 19470ms total)
T0590 9184:456 JLINK_ReadMemEx(0x40013434, 0x000C Bytes, ..., Flags = 0x02000004) -- CPU_ReadMem(12 bytes @ 0x40013434) - Data: 00 00 00 00 00 00 00 00 00 00 00 00  returns 0x0C (0001ms, 19471ms total)
T0590 9184:457 JLINK_ReadMemEx(0x40013440, 0x0004 Bytes, ..., Flags = 0x02000004) -- CPU_ReadMem(4 bytes @ 0x40013440) - Data: 00 00 00 00  returns 0x04 (0000ms, 19471ms total)
T0590 9184:457 JLINK_ReadMemEx(0x40013444, 0x0004 Bytes, ..., Flags = 0x02000004) -- CPU_ReadMem(4 bytes @ 0x40013444) - Data: 00 00 00 00  returns 0x04 (0001ms, 19472ms total)
T0590 9184:458 JLINK_ReadMemEx(0x40013448, 0x0004 Bytes, ..., Flags = 0x02000004) -- CPU_ReadMem(4 bytes @ 0x40013448) - Data: 00 00 00 00  returns 0x04 (0000ms, 19472ms total)
T0590 9184:458 JLINK_ReadMemEx(0x4001344C, 0x0004 Bytes, ..., Flags = 0x02000004) -- CPU_ReadMem(4 bytes @ 0x4001344C) - Data: 00 00 00 00  returns 0x04 (0001ms, 19473ms total)
T23F4 9189:232 JLINK_ReadMemEx(0x080001B0, 0x0002 Bytes, ..., Flags = 0x02000000) -- Read from C cache (2 bytes @ 0x080001B0) - Data: 09 48  returns 0x02 (0000ms, 19473ms total)
T23F4 9189:232 JLINK_Go() -- CPU_ReadMem(4 bytes @ 0xE0001000) -- CPU_WriteMem(4 bytes @ 0xE0001004) (0003ms, 19476ms total)
T23F4 9189:335 JLINK_IsHalted()  returns FALSE (0001ms, 19477ms total)
T23F4 9189:437 JLINK_IsHalted()  returns FALSE (0001ms, 19477ms total)
T23F4 9189:539 JLINK_IsHalted()  returns FALSE (0001ms, 19477ms total)
T23F4 9189:640 JLINK_IsHalted()  returns FALSE (0002ms, 19478ms total)
T23F4 9189:742 JLINK_ReadMemU32(0xE0001004, 0x0001 Items, ...) -- CPU_ReadMem(4 bytes @ 0xE0001004) - Data: AE 92 2E 02  returns 1 (0001ms, 19477ms total)
T0590 9189:744 JLINK_ReadMemEx(0x40013400, 0x0010 Bytes, ..., Flags = 0x02000004) -- CPU_ReadMem(16 bytes @ 0x40013400) - Data: 00 00 00 00 00 00 00 00 00 00 00 00 00 00 00 00  returns 0x10 (0001ms, 19478ms total)
T0590 9189:745 JLINK_ReadMemEx(0x40013410, 0x0004 Bytes, ..., Flags = 0x02000004) -- CPU_ReadMem(4 bytes @ 0x40013410) - Data: 00 00 00 00  returns 0x04 (0001ms, 19479ms total)
T0590 9189:746 JLINK_ReadMemEx(0x40013418, 0x0014 Bytes, ..., Flags = 0x02000004) -- CPU_ReadMem(20 bytes @ 0x40013418) - Data: 00 00 00 00 00 00 00 00 00 00 00 00 00 00 00 00 ...  returns 0x14 (0001ms, 19480ms total)
T0590 9189:747 JLINK_ReadMemEx(0x4001342C, 0x0004 Bytes, ..., Flags = 0x02000004) -- CPU_ReadMem(4 bytes @ 0x4001342C) - Data: 00 00 00 00  returns 0x04 (0001ms, 19481ms total)
T0590 9189:748 JLINK_ReadMemEx(0x40013430, 0x0004 Bytes, ..., Flags = 0x02000004) -- CPU_ReadMem(4 bytes @ 0x40013430) - Data: 00 00 00 00  returns 0x04 (0001ms, 19482ms total)
T0590 9189:749 JLINK_ReadMemEx(0x40013434, 0x000C Bytes, ..., Flags = 0x02000004) -- CPU_ReadMem(12 bytes @ 0x40013434) - Data: 00 00 00 00 00 00 00 00 00 00 00 00  returns 0x0C (0002ms, 19484ms total)
T0590 9189:751 JLINK_ReadMemEx(0x40013440, 0x0004 Bytes, ..., Flags = 0x02000004) -- CPU_ReadMem(4 bytes @ 0x40013440) - Data: 00 00 00 00  returns 0x04 (0001ms, 19485ms total)
T0590 9189:752 JLINK_ReadMemEx(0x40013444, 0x0004 Bytes, ..., Flags = 0x02000004) -- CPU_ReadMem(4 bytes @ 0x40013444) - Data: 00 00 00 00  returns 0x04 (0001ms, 19486ms total)
T0590 9189:753 JLINK_ReadMemEx(0x40013448, 0x0004 Bytes, ..., Flags = 0x02000004) -- CPU_ReadMem(4 bytes @ 0x40013448) - Data: 00 00 00 00  returns 0x04 (0001ms, 19487ms total)
T0590 9189:754 JLINK_ReadMemEx(0x4001344C, 0x0004 Bytes, ..., Flags = 0x02000004) -- CPU_ReadMem(4 bytes @ 0x4001344C) - Data: 00 00 00 00  returns 0x04 (0001ms, 19488ms total)
T23F4 9189:757 JLINK_IsHalted()  returns FALSE (0001ms, 19489ms total)
T23F4 9189:859 JLINK_IsHalted()  returns FALSE (0001ms, 19489ms total)
T23F4 9189:961 JLINK_IsHalted()  returns FALSE (0001ms, 19489ms total)
T23F4 9190:063 JLINK_IsHalted()  returns FALSE (0001ms, 19489ms total)
T23F4 9190:165 JLINK_IsHalted()  returns FALSE (0000ms, 19488ms total)
T23F4 9190:267 JLINK_ReadMemU32(0xE0001004, 0x0001 Items, ...) - Data: AE 92 2E 02  returns 1 (0000ms, 19488ms total)
T0590 9190:267 JLINK_ReadMemEx(0x40013400, 0x0010 Bytes, ..., Flags = 0x02000004) -- CPU_ReadMem(16 bytes @ 0x40013400) - Data: 00 00 00 00 00 00 00 00 00 00 00 00 00 00 00 00  returns 0x10 (0001ms, 19489ms total)
T0590 9190:268 JLINK_ReadMemEx(0x40013410, 0x0004 Bytes, ..., Flags = 0x02000004) -- CPU_ReadMem(4 bytes @ 0x40013410) - Data: 00 00 00 00  returns 0x04 (0001ms, 19490ms total)
T0590 9190:269 JLINK_ReadMemEx(0x40013418, 0x0014 Bytes, ..., Flags = 0x02000004) -- CPU_ReadMem(20 bytes @ 0x40013418) - Data: 00 00 00 00 00 00 00 00 00 00 00 00 00 00 00 00 ...  returns 0x14 (0001ms, 19491ms total)
T0590 9190:270 JLINK_ReadMemEx(0x4001342C, 0x0004 Bytes, ..., Flags = 0x02000004) -- CPU_ReadMem(4 bytes @ 0x4001342C) - Data: 00 00 00 00  returns 0x04 (0001ms, 19492ms total)
T0590 9190:271 JLINK_ReadMemEx(0x40013430, 0x0004 Bytes, ..., Flags = 0x02000004) -- CPU_ReadMem(4 bytes @ 0x40013430) - Data: 00 00 00 00  returns 0x04 (0000ms, 19492ms total)
T0590 9190:271 JLINK_ReadMemEx(0x40013434, 0x000C Bytes, ..., Flags = 0x02000004) -- CPU_ReadMem(12 bytes @ 0x40013434) - Data: 00 00 00 00 00 00 00 00 00 00 00 00  returns 0x0C (0001ms, 19493ms total)
T0590 9190:272 JLINK_ReadMemEx(0x40013440, 0x0004 Bytes, ..., Flags = 0x02000004) -- CPU_ReadMem(4 bytes @ 0x40013440) - Data: 00 00 00 00  returns 0x04 (0001ms, 19494ms total)
T0590 9190:273 JLINK_ReadMemEx(0x40013444, 0x0004 Bytes, ..., Flags = 0x02000004) -- CPU_ReadMem(4 bytes @ 0x40013444) - Data: 00 00 00 00  returns 0x04 (0001ms, 19495ms total)
T0590 9190:274 JLINK_ReadMemEx(0x40013448, 0x0004 Bytes, ..., Flags = 0x02000004) -- CPU_ReadMem(4 bytes @ 0x40013448) - Data: 00 00 00 00  returns 0x04 (0001ms, 19496ms total)
T0590 9190:275 JLINK_ReadMemEx(0x4001344C, 0x0004 Bytes, ..., Flags = 0x02000004) -- CPU_ReadMem(4 bytes @ 0x4001344C) - Data: 00 00 00 00  returns 0x04 (0001ms, 19497ms total)
T23F4 9190:278 JLINK_IsHalted()  returns FALSE (0000ms, 19497ms total)
T23F4 9190:379 JLINK_IsHalted()  returns FALSE (0001ms, 19498ms total)
T23F4 9190:482 JLINK_IsHalted()  returns FALSE (0000ms, 19497ms total)
T23F4 9190:583 JLINK_IsHalted()  returns FALSE (0001ms, 19498ms total)
T23F4 9190:685 JLINK_IsHalted()  returns FALSE (0001ms, 19498ms total)
T23F4 9190:787 JLINK_ReadMemU32(0xE0001004, 0x0001 Items, ...) - Data: AE 92 2E 02  returns 1 (0000ms, 19497ms total)
T0590 9190:787 JLINK_ReadMemEx(0x40013400, 0x0010 Bytes, ..., Flags = 0x02000004) -- CPU_ReadMem(16 bytes @ 0x40013400) - Data: 00 00 00 00 00 00 00 00 00 00 00 00 00 00 00 00  returns 0x10 (0002ms, 19499ms total)
T0590 9190:789 JLINK_ReadMemEx(0x40013410, 0x0004 Bytes, ..., Flags = 0x02000004) -- CPU_ReadMem(4 bytes @ 0x40013410) - Data: 00 00 00 00  returns 0x04 (0001ms, 19500ms total)
T0590 9190:790 JLINK_ReadMemEx(0x40013418, 0x0014 Bytes, ..., Flags = 0x02000004) -- CPU_ReadMem(20 bytes @ 0x40013418) - Data: 00 00 00 00 00 00 00 00 00 00 00 00 00 00 00 00 ...  returns 0x14 (0001ms, 19501ms total)
T0590 9190:791 JLINK_ReadMemEx(0x4001342C, 0x0004 Bytes, ..., Flags = 0x02000004) -- CPU_ReadMem(4 bytes @ 0x4001342C) - Data: 00 00 00 00  returns 0x04 (0001ms, 19502ms total)
T0590 9190:792 JLINK_ReadMemEx(0x40013430, 0x0004 Bytes, ..., Flags = 0x02000004) -- CPU_ReadMem(4 bytes @ 0x40013430) - Data: 00 00 00 00  returns 0x04 (0001ms, 19503ms total)
T0590 9190:793 JLINK_ReadMemEx(0x40013434, 0x000C Bytes, ..., Flags = 0x02000004) -- CPU_ReadMem(12 bytes @ 0x40013434) - Data: 00 00 00 00 00 00 00 00 00 00 00 00  returns 0x0C (0001ms, 19504ms total)
T0590 9190:795 JLINK_ReadMemEx(0x40013440, 0x0004 Bytes, ..., Flags = 0x02000004) -- CPU_ReadMem(4 bytes @ 0x40013440) - Data: 00 00 00 00  returns 0x04 (0001ms, 19505ms total)
T0590 9190:796 JLINK_ReadMemEx(0x40013444, 0x0004 Bytes, ..., Flags = 0x02000004) -- CPU_ReadMem(4 bytes @ 0x40013444) - Data: 00 00 00 00  returns 0x04 (0001ms, 19506ms total)
T0590 9190:797 JLINK_ReadMemEx(0x40013448, 0x0004 Bytes, ..., Flags = 0x02000004) -- CPU_ReadMem(4 bytes @ 0x40013448) - Data: 00 00 00 00  returns 0x04 (0001ms, 19507ms total)
T0590 9190:798 JLINK_ReadMemEx(0x4001344C, 0x0004 Bytes, ..., Flags = 0x02000004) -- CPU_ReadMem(4 bytes @ 0x4001344C) - Data: 00 00 00 00  returns 0x04 (0001ms, 19508ms total)
T23F4 9190:800 JLINK_IsHalted()  returns FALSE (0001ms, 19509ms total)
T23F4 9190:902 JLINK_IsHalted()  returns FALSE (0001ms, 19509ms total)
T23F4 9191:004 JLINK_IsHalted()  returns FALSE (0001ms, 19509ms total)
T23F4 9191:106 JLINK_IsHalted()  returns FALSE (0001ms, 19509ms total)
